time	V(d)	Id(Mnmos-4@0)
0.000000000000000e+000	3.300000e+000	8.893902e-004
4.962437499999943e-001	3.300000e+000	8.893902e-004
5.000099999999996e-001	3.299887e+000	8.893887e-004
5.003866250000009e-001	3.299752e+000	8.893870e-004
5.011398750000016e-001	3.299254e+000	8.893807e-004
7.819432500000039e-001	3.113924e+000	8.872490e-004
1.062746625000006e+000	2.928594e+000	8.845153e-004
1.343550000000008e+000	2.743264e+000	8.811796e-004
1.624353375000011e+000	2.557933e+000	8.772420e-004
1.905156750000013e+000	2.372603e+000	8.727023e-004
2.185960125000015e+000	2.187273e+000	8.675607e-004
2.466763500000017e+000	2.001943e+000	8.618172e-004
2.555770196428588e+000	1.943198e+000	8.596130e-004
2.644776892857160e+000	1.884454e+000	8.571306e-004
2.733783589285731e+000	1.825709e+000	8.543700e-004
2.822790285714302e+000	1.766965e+000	8.513312e-004
2.911796982142874e+000	1.708221e+000	8.480142e-004
3.000803678571446e+000	1.649476e+000	8.444189e-004
3.089810375000017e+000	1.590732e+000	8.405455e-004
3.100552562500017e+000	1.583642e+000	8.400343e-004
3.155798098214302e+000	1.547180e+000	8.373733e-004
3.211043633928588e+000	1.510718e+000	8.344275e-004
3.266289169642874e+000	1.474256e+000	8.311971e-004
3.321534705357160e+000	1.437794e+000	8.276819e-004
3.376780241071446e+000	1.401332e+000	8.238819e-004
3.432025776785731e+000	1.364870e+000	8.197972e-004
3.487271312500017e+000	1.328408e+000	8.154278e-004
3.498013500000017e+000	1.321318e+000	8.145138e-004
3.500000000000000e+000	1.320007e+000	8.143431e-004
